,, 1999
18, 12A, 6D
1, IA1, A, , A, 0.009205, 0.000365, 0, -32768, 32767, 200, 1, S
2, IC1, C, , A, 0.009193, -0.000354, 0, -32768, 32767, 200, 1, S
3, UA1СШ, A, , V, 0.016515, 0.002075, 0, -32768, 32767, 100, 1, S
4, UB1СШ, B, , V, 0.016695, 0.004507, 0, -32768, 32767, 100, 1, S
5, UC1СШ, C, , V, 0.016526, 0.002096, 0, -32768, 32767, 100, 1, S
6, UN1СШ, N, , V, 0.016514, 0.004505, 0, -32768, 32767, 100, 1, S
7, IA2, A, , A, 0.009213, -0.000736, 0, -32768, 32767, 200, 1, S
8, IC2, C, , A, 0.009184, -0.000697, 0, -32768, 32767, 200, 1, S
9, UA2СШ, A, , V, 0.01651, 0.005877, 0, -32768, 32767, 100, 1, S
10, UB2СШ, B, , V, 0.016515, 0.011068, 0, -32768, 32767, 100, 1, S
11, UC2СШ, C, , V, 0.016513, 0.006119, 0, -32768, 32767, 100, 1, S
12, UN2СШ, N, , V, 0.016571, 0.006788, 0, -32768, 32767, 100, 1, S
1, MLsignal_12_1_1, A, , 0
2, MLsignal_2_1_2, A, , 0
3, MLsignal_2_3, A, , 0
4, MLsignal_2_2_1_3, A, , 0
5, MLsignal_2_2_1_1, A, , 0
6, Пуск осциллографа, , , 0
50
1
1600, 10400
16/12/2021, 09:22:37.383000
16/12/2021, 09:22:38.383000
ASCII
1
1,0,-76,83,-3514,-1462,5003,10,-44,45,-372,1293,7922.000000000001,5225,0,0,0,0,1,0
2,625,-75,106,-2582,-2441,5068,15,-44,60,-369,-493.00000000000006,7144,3713,0,0,0,0,1,0
3,1250,-76,123,-1695,-3222,4988,23,-40,71,-312,-2144,6183,2201,0,0,0,0,1,0
4,1875,-66,129,-819,-3888,4786,25,-33,77,-407,-3792,4946,439,0,0,0,0,1,0
5,2500,-43,112.99999999999999,103,-4399,4393,30,-19,68,-208,-5071,3756,-903,0,0,0,0,1,0
6,3125,0,77,1077,-4794,3820,31,5,53,8,-6119,2514,-2128,0,0,0,0,1,0
7,3750,20,77,2158,-4994,2942,32,19,54,325,-6985,997.9999999999999,-3347,0,0,0,0,1,0
8,4375,41,77,3033,-4952,2023,30,35,51,518,-7571,-534,-4484,0,0,0,0,1,0
9,5000,57,71,3761,-4811,1142,24,42,48,512,-8044,-2066,-5671,0,0,0,0,1,0
10,5625,66,53,4325,-4472,228,20,47,36,581,-8210,-3546,-6604,0,0,0,0,1,0
11,6250,71,13,4764,-3962.0000000000005,-736,14,50,9,695,-7986.000000000001,-4829,-7162,0,0,0,0,1,0
12,6875,88,-12,5066,-3193,-1819,10,57.99999999999999,-5,1032,-7145,-5857,-7074,0,0,0,0,1,0
13,7500,111,-34,5047,-2283,-2734,2,68,-18,948,-6235,-6842,-7168,0,0,0,0,1,0
14,8125,123,-50,4934,-1429,-3486,1,70,-25,828,-5278,-7478,-7051,0,0,0,0,1,0
15,8750,123,-62,4657,-525,-4125,-1,66,-30.999999999999996,766,-4104,-7852,-6613,0,0,0,0,1,0
16,9375,96,-68,4194,422,-4627,-8,48,-34,662,-2707,-7949.999999999999,-5906,0,0,0,0,1,0
17,10000,75,-82,3520,1451,-4997,-8,46,-45,602,-1029,-7675,-4787,0,0,0,0,1,0
18,10625,77,-106,2590,2433,-5071,-19,47,-61,451,617,-7048,-3534,0,0,0,0,1,0
19,11250,75,-124,1706,3220,-4992,-21,43,-71,435,2256,-6068,-1991,0,0,0,0,1,0
20,11875,66,-129,820,3889.9999999999995,-4791,-26,35,-76,424,3779,-4953,-440,0,0,0,0,1,0
21,12500,44,-111.99999999999999,-99,4400,-4396,-30,21,-67,184,5037,-3794,847,0,0,0,0,1,0
22,13125,1,-75,-1076,4799,-3825,-30,-3,-51,15,6131,-2511,2150,0,0,0,0,1,0
23,13750,-21,-73,-2148,4995,-2953,-32,-17,-52,-329,6965,-1025,3316,0,0,0,0,1,0
24,14375,-40,-75,-3025,4953,-2030.9999999999998,-28,-33,-48,-508.99999999999994,7585,540,4502,0,0,0,0,1,0
25,15000,-55.00000000000001,-70,-3755,4813,-1148,-23,-41,-46,-531,8029,2049,5640,0,0,0,0,1,0
26,15625,-66,-50,-4318,4477,-241,-20,-48,-34,-588,8196,3523,6577,0,0,0,0,1,0
27,16250,-72,-11,-4752,3969.9999999999995,717,-12,-50,-3,-659,8011,4830,7199,0,0,0,0,1,0
28,16875,-87,13,-5062,3200,1812,-10,-57.00000000000001,6,-950,7223,5922,7206,0,0,0,0,1,0
29,17500,-109,34,-5049,2295,2727,-1,-65,19,-901,6294,6884,7254,0,0,0,0,1,0
30,18125,-122.00000000000001,50,-4933,1438,3479,0,-69,26,-816,5308,7490,7081,0,0,0,0,1,0
31,18750,-121,63,-4657,532,4119,2,-65,34,-777,4114,7845.000000000001,6608,0,0,0,0,1,0
32,19375,-95,68,-4197,-414,4626,10,-48,36,-633,2732,7977,5957,0,0,0,0,1,0
33,20000,-74,81,-3527,-1442,4996,9,-45,45,-518,1117,7756,4936,0,0,0,0,1,0
34,20625,-77,104,-2595,-2425,5071,17,-44,61.99999999999999,-354,-510,7140,3708,0,0,0,0,1,0
35,21250,-76,124,-1712,-3210,4992,21,-41,71,-333,-2138,6181,2189,0,0,0,0,1,0
36,21875,-64,128,-834,-3879,4799,25,-35,77,-347,-3678,5047,600,0,0,0,0,1,0
37,22500,-42,111.99999999999999,93,-4396,4400,31,-20,67,-167,-4997,3834,-789,0,0,0,0,1,0
38,23125,-1,78,1064,-4791,3829,30,6,52,-8,-6111,2532,-2122,0,0,0,0,1,0
39,23750,21,77,2139,-4994,2962,32,19,55.00000000000001,333,-6965,1034,-3310,0,0,0,0,1,0
40,24375,42,77,3018,-4956,2037.9999999999998,31,35,51,517,-7572,-520,-4475,0,0,0,0,1,0
41,25000,57,72,3748,-4812,1154,24,43,48,546,-8009,-2016,-5601,0,0,0,0,1,0
42,25625,68,53,4314,-4479,242,19,47,36,599,-8187.000000000001,-3500,-6551,0,0,0,0,1,0
43,26250,73,13.999999999999998,4756,-3973.0000000000005,-720,12,49,10,672,-8002.000000000001,-4824,-7180,0,0,0,0,1,0
44,26875,89,-13,5063,-3211,-1803,9,56,-3,932,-7246,-5922,-7231,0,0,0,0,1,0
45,27500,110.00000000000001,-34,5048,-2296,-2724,0,64,-16,875,-6327,-6903,-7301,0,0,0,0,1,0
46,28125,122.00000000000001,-48,4935,-1441,-3477,-3,68,-23,805,-5326,-7502,-7108,0,0,0,0,1,0
47,28750,121,-62,4662,-544,-4118,-4,65,-32,745,-4153,-7875,-6668,0,0,0,0,1,0
48,29375,95,-66,4204,398,-4620,-11,46,-35,638,-2759,-7971,-5964,0,0,0,0,1,0
49,30000,75,-78,3535,1423,-4987,-12,47,-43,551,-1117,-7724,-4901,0,0,0,0,1,0
50,30625,76,-103,2608,2411,-5072,-18,46,-59.00000000000001,395,521,-7113,-3660,0,0,0,0,1,0
51,31250,75,-120,1724,3201,-4994,-23,41,-70,383,2167,-6140,-2120,0,0,0,0,1,0
52,31875,66,-125,838,3878,-4799,-28,36,-75,366,3691,-5034,-574,0,0,0,0,1,0
53,32500,43,-110.00000000000001,-88,4395,-4403,-31,21,-65,177,5008,-3829,805,0,0,0,0,1,0
54,33125,0,-74,-1063,4798,-3840,-32,-3,-51,6,6107,-2547,2108,0,0,0,0,1,0
55,33750,-19,-75,-2135,4998,-2971,-32,-18,-52,-338,6949,-1063,3281,0,0,0,0,1,0
56,34375,-41,-76,-3006,4956,-2051,-30,-33,-49,-511,7573,504,4473,0,0,0,0,1,0
57,35000,-57,-71,-3735,4818,-1172,-22,-41,-46,-518,8032.999999999999,2019.0000000000002,5634,0,0,0,0,1,0
58,35625,-66,-53,-4308,4487,-257,-18,-46,-35,-557,8226,3515,6608,0,0,0,0,1,0
59,36250,-74,-11,-4746,3984,702,-12,-50,-5,-616,8058,4848,7262,0,0,0,1,1,0
60,36875,-88,13,-5060,3217,1788,-12,-59,6,-1140,7089,5760,6921,0,0,0,1,1,0
61,37500,-110.00000000000001,35,-5048,2310,2712,1,-67,19,-1348,5857,6445,6474,0,0,0,1,1,0
62,38125,-122.00000000000001,50,-4936,1452,3477,8,-68,28,-868,5237,7404,6960,0,0,0,0,1,0
63,38750,-122.00000000000001,62,-4667,541,4114,0,-63,33,-679,4200,7903,6752,0,0,0,0,1,0
64,39375,-97,68,-4203,-394,4622,16,-46,35,-413,2996,8211,6382,0,0,0,0,1,0
65,40000,-75,81,-3544,-1418,4991,12,-43,44,-464,1255,7845.000000000001,5102,0,0,0,0,1,0
66,40625,-76,103,-2613,-2408,5072,20,-44,59.00000000000001,-380,-473,7151,3720,0,0,0,0,1,0
67,41250,-74,122,-1723,-3197,4994,26,-40,70,-311,-2106,6210,2242,0,0,0,0,1,0
68,41875,-66,128,-851,-3866,4802,27,-35,74,-379,-3709,5018,547,0,0,0,0,1,0
69,42500,-43,110.00000000000001,75,-4385,4411,33,-21,67,-176,-4986,3848,-778,0,0,0,0,1,0
70,43125,0,76,1048,-4782,3842,32,4,52,-16,-6094,2554,-2102,0,0,0,0,1,0
71,43750,18,76,2128,-4995,2975,33,19,55.00000000000001,304,-6973,1043,-3328,0,0,0,0,1,0
72,44375,40,76,3002,-4956,2057,31,34,50,523,-7556,-478,-4438,0,0,0,0,1,0
73,45000,55.99999999999999,72,3729,-4820,1182,25,41,48,567,-7983.999999999999,-1967,-5544,0,0,0,0,1,0
74,45625,67,54,4303,-4487,264,18,47,37,626,-8161,-3439,-6483,0,0,0,0,1,0
75,46250,71,17,4749,-3983.0000000000005,-702,13,49,11,721,-7958,-4746,-7080,0,0,0,1,1,0
76,46875,88,-12,5061,-3228,-1780,12,57.99999999999999,-4,1156,-7076,-5710,-6871,0,0,0,1,1,0
77,47500,110.00000000000001,-33,5050,-2316,-2709,-1,66,-16,1097,-6104,-6663,-6894,0,0,0,1,1,0
78,48125,123,-49,4934,-1453,-3471,-4,69,-24,763,-5353,-7513,-7152,0,0,0,0,1,0
79,48750,123.99999999999999,-62,4670,-553,-4111,-2,64,-30,653,-4253,-7948.999999999999,-6827,0,0,0,0,1,0
80,49375,98,-66,4215,380,-4618,-14,46,-35,471,-2969,-8158,-6296,0,0,0,0,1,0
81,50000,75,-80,3550,1405,-4984,-12,47,-44,483,-1236,-7820.999999999999,-5065,0,0,0,0,1,0
82,50625,75,-103,2625,2395,-5075,-20,46,-57.99999999999999,353,439,-7181,-3774,0,0,0,0,1,0
83,51250,77,-121,1735,3190,-4999,-26,42,-70,346,2112,-6195,-2207,0,0,0,0,1,0
84,51875,68,-129,854,3865,-4805,-29,36,-75,392,3698,-5024,-549,0,0,0,0,1,0
85,52500,44,-111.99999999999999,-69,4380,-4414,-34,22,-66,167,4977,-3858,762,0,0,0,0,1,0
86,53125,0,-74,-1042,4785,-3850,-32,-3,-50,-16,6062,-2591,2043.9999999999998,0,0,0,0,1,0
87,53750,-20,-73,-2121,4998,-2986,-33,-18,-51,-356,6914,-1108,3224,0,0,0,0,1,0
88,54375,-39,-74,-2999,4958,-2065,-33,-33,-50,-560,7514,434,4368,0,0,0,0,1,0
89,55000,-55.00000000000001,-69,-3727,4823,-1187,-24,-41,-46,-540,8003.000000000001,1975,5578,0,0,0,0,1,0
90,55625,-65,-51,-4297,4493,-279,-22,-46,-35,-578,8201,3465,6551,0,0,0,0,1,0
91,56250,-70,-12,-4740,3996,681,-12,-50,-5,-611,8065.999999999999,4820,7255,0,0,0,1,1,0
92,56875,-86,12,-5057,3232,1769,-13,-57.99999999999999,5,-1064,7165,5785,7025,0,0,0,1,1,0
93,57500,-107,34,-5047,2328,2693,2,-65,18,-1022,6196,6734,7038,0,0,0,1,1,0
94,58125,-121,51,-4938,1469,3456,3,-69,27,-798,5349,7476,7110,0,0,0,0,1,0
95,58750,-122.00000000000001,63,-4672,563,4102,4,-61.99999999999999,32,-706,4221,7895,6745,0,0,0,0,1,0
96,59375,-97,69,-4215,-378,4616,13,-48,36,-514,2914,8114,6216,0,0,0,0,1,0
97,60000,-74,81,-3558,-1399,4986,13,-45,45,-503,1219,7802.000000000001,5036,0,0,0,0,1,0
98,60625,-77,105,-2631,-2387,5075,20,-46,61.99999999999999,-359,-438,7182,3773,0,0,0,0,1,0
99,61250,-76,124,-1740,-3186,5001,27,-41,72,-334,-2090,6217,2242,0,0,0,0,1,0
100,61875,-67,130,-864,-3858,4811,29,-34,77,-363,-3651,5069,621,0,0,0,0,1,0
101,62500,-44,113.99999999999999,54,-4373,4422,35,-20,69,-164,-4945,3889.0000000000005,-724,0,0,0,0,1,0
102,63125,1,76,1023.0000000000001,-4774,3860,35,5,53,-10,-6061,2598,-2057,0,0,0,0,1,0
103,63750,19,76,2111,-4996,2996,36,18,55.00000000000001,336,-6926,1105,-3243,0,0,0,0,1,0
104,64375,40,78,2992,-4957,2073,32,36,52,539,-7531,-443,-4394,0,0,0,0,1,0
105,65000,55.00000000000001,72,3725,-4822,1193,26,43,49,553,-7992,-1956,-5551,0,0,0,0,1,0
106,65625,66,53,4298,-4492,277,22,48,37,610,-8175,-3435,-6499,0,0,0,0,1,0
107,66250,71,15,4746,-3994,-685,13,49,11,675,-8007,-4778,-7154,0,0,0,0,1,0
108,66875,85,-11,5061,-3242,-1766,11,57.99999999999999,-3,1010,-7208,-5813,-7097,0,0,0,0,1,0
109,67500,108,-32,5048,-2329,-2691,1,66,-15,952,-6284,-6801,-7168,0,0,0,0,1,0
110,68125,120.00000000000001,-48,4938,-1472,-3449,0,68,-23,824,-5336,-7457,-7074,0,0,0,0,1,0
111,68750,121,-61,4674,-572,-4096,-5,65,-30.999999999999996,742,-4197,-7859,-6687,0,0,0,0,1,0
112,69375,96,-66,4224,365,-4606,-10,47,-34,579,-2867,-8037,-6102,0,0,0,0,1,0
113,70000,75,-79,3562,1385,-4975,-13,45,-44,508.00000000000006,-1222,-7793,-5026,0,0,0,0,1,0
114,70625,75,-101,2644,2376,-5072,-19,45,-57.99999999999999,384,436,-7163,-3746,0,0,0,0,1,0
115,71250,75,-120,1754,3174,-5000,-25,42,-70,377,2097,-6189,-2195,0,0,0,0,1,0
116,71875,69,-127,875,3851.9999999999995,-4812,-30,36,-75,384,3654,-5060,-598,0,0,0,0,1,0
117,72500,45,-111.99999999999999,-50,4375,-4426,-32,23,-67,183,4965,-3873,756,0,0,0,0,1,0
118,73125,1,-74,-1020,4778,-3867,-34,-2,-51,22,6070,-2591,2073,0,0,0,0,1,0
119,73750,-19,-74,-2098,4996,-3007,-37,-17,-52,-334,6915,-1129,3223,0,0,0,0,1,0
120,74375,-38,-76,-2982,4960,-2084,-32,-33,-49,-517,7546,442,4415,0,0,0,0,1,0
121,75000,-54,-70,-3719,4825,-1203,-27,-43,-46,-526,8012,1968.0000000000002,5585,0,0,0,0,1,0
122,75625,-66,-53,-4292,4499,-292,-22,-47,-36,-567,8219,3463,6568,0,0,0,0,1,0
123,76250,-72,-12,-4738,4007,664,-15,-50,-6,-643,8046,4783,7200,0,0,0,0,1,0
124,76875,-85,13,-5062,3250,1753,-15,-57.99999999999999,4,-1119,7137,5725,6940,0,0,0,1,1,0
125,77500,-106,34,-5056,2342,2677,-6,-68,20,-1525,5738,6255,6188,0,0,0,1,1,0
126,78125,-120.00000000000001,50,-4938,1486,3447,8,-69,27,-973.0000000000001,5163,7279,6780,0,0,0,0,1,0
127,78750,-121,61,-4680,575,4090.0000000000005,-4,-64,33,-722,4191,7834,6679,0,0,0,0,1,0
128,79375,-98,68,-4226,-360,4606,13,-47,34,-396,3061,8228,6441,0,0,0,0,1,0
129,80000,-74,79,-3568,-1382,4979,11,-46,45,-380,1411,7948.999999999999,5307,0,0,0,0,1,0
130,80625,-76,102,-2646,-2380,5072,15,-45,57.99999999999999,-380,-387,7197,3799,0,0,0,0,1,0
131,81250,-76,121,-1760,-3168,5001,28,-40,71,-313,-2038.0000000000002,6257,2308,0,0,0,0,1,0
132,81875,-66,127,-886,-3843.0000000000005,4814,27,-36,76,-416,-3697,5024,537,0,0,0,0,1,0
133,82500,-44,111.99999999999999,39,-4366,4428,34,-21,68,-216,-4989,3848,-805,0,0,0,0,1,0
134,83125,0,76,1011.0000000000001,-4770,3866,36,6,52,8,-6026,2637,-2002.0000000000002,0,0,0,0,1,0
135,83750,17,77,2093,-4994,3013,35,19,55.00000000000001,344,-6897,1151,-3194,0,0,0,0,1,0
136,84375,39,76,2975,-4957,2093,35,35,52,592,-7455,-345,-4259,0,0,0,0,1,0
137,85000,54,72,3706,-4823,1213,26,42,49,589,-7937.000000000001,-1876,-5449,0,0,0,0,1,0
138,85625,67,54,4282,-4499,300,21,47,38,606,-8171.000000000001,-3399,-6476,0,0,0,0,1,0
139,86250,72,16,4738,-4003.0000000000005,-664,15,48,11,678,-8013,-4750,-7141,0,0,0,0,1,0
140,86875,86,-12,5057,-3257,-1745,10,56,-2,885,-7338,-5906,-7301,0,0,0,0,1,0
141,87500,109,-33,5055,-2345,-2675,4,65,-15,810,-6451,-6927,-7425,0,0,0,0,1,0
142,88125,121,-48,4945,-1485,-3439,2,68,-25,751,-5445,-7539,-7228,0,0,0,0,1,0
143,88750,122.00000000000001,-60,4686,-589,-4090.0000000000005,-3,65,-30,728,-4254,-7889.000000000001,-6746,0,0,0,0,1,0
144,89375,98,-66,4238,347,-4595,-7,47,-33,644,-2832,-7975.999999999999,-6006,0,0,0,0,1,0
145,90000,75,-79,3581,1363,-4968,-10,46,-43,538,-1218,-7767,-4991,0,0,0,0,1,0
146,90625,75,-100,2657,2368,-5074,-17,46,-59.00000000000001,373,412,-7186,-3782,0,0,0,0,1,0
147,91250,75,-120,1769,3165,-5003,-21,41,-69,331,2038.0000000000002,-6246,-2287,0,0,0,0,1,0
148,91875,66,-126,890,3844.0000000000005,-4817,-26,36,-74,322,3564,-5144,-740,0,0,0,0,1,0
149,92500,45,-111.99999999999999,-35,4364,-4427,-31,23,-67,158,4909,-3927.0000000000005,676,0,0,0,0,1,0
150,93125,2,-75,-1007,4774,-3872,-34,-3,-49,20,6046,-2622,2035.9999999999998,0,0,0,0,1,0
151,93750,-18,-75,-2088,4998,-3020,-35,-17,-52,-306,6926,-1128,3248,0,0,0,0,1,0
152,94375,-40,-75,-2966,4959,-2100,-33,-32,-50,-497,7553,437,4429,0,0,0,0,1,0
153,95000,-55.00000000000001,-70,-3698,4828,-1223,-27,-41,-46,-538,7995,1927,5544,0,0,0,0,1,0
154,95625,-67,-54,-4278,4506,-312,-21,-45,-36,-591,8188,3401,6500,0,0,0,0,1,0
155,96250,-70,-13,-4726,4013.0000000000005,646,-15,-48,-6,-632,8047.999999999999,4752,7189,0,0,0,0,1,0
156,96875,-85,11,-5052,3265,1729,-13,-56,4,-993,7254,5799,7127,0,0,0,0,1,0
157,97500,-108,33,-5053,2357,2663,-2,-64,17,-963,6301,6775,7159,0,0,0,0,1,0
158,98125,-121,50,-4946,1496,3430,-1,-69,27,-830,5370,7443,7080,0,0,0,0,1,0
159,98750,-121,64,-4685,592,4084,0,-65,34,-762,4230,7842,6686,0,0,0,0,1,0
160,99375,-98,67,-4239,-343,4594,9,-48,34,-596,2890,8038,6109,0,0,0,0,1,0
161,100000,-75,80,-3590,-1356,4971,8,-44,43,-556,1225,7762.999999999999,4983,0,0,0,0,1,0
162,100625,-77,103,-2665,-2360,5075,17,-45,59.00000000000001,-393,-412,7176,3767,0,0,0,0,1,0
163,101250,-77,121,-1773,-3161,5002,23,-40,70,-365,-2058,6230,2249,0,0,0,0,1,0
164,101875,-67,128,-901,-3834.0000000000005,4819,26,-34,75,-384,-3609,5098,651,0,0,0,0,1,0
165,102500,-44,112.99999999999999,18,-4356,4436,31,-22,69,-194,-4928,3908,-721,0,0,0,0,1,0
166,103125,0,76,989,-4766,3881,32,5,52,-43,-6053,2618,-2056,0,0,0,0,1,0
167,103750,17,77,2079,-4998,3028,35,19,55.00000000000001,299,-6931,1133,-3251,0,0,0,0,1,0
168,104375,40,76,2961,-4961,2106,32,35,51,503,-7542,-411,-4403,0,0,0,0,1,0
169,105000,55.99999999999999,70,3694,-4830,1231,25,42,49,516,-8005.000000000001,-1923,-5560,0,0,0,0,1,0
170,105625,66,54,4273,-4507,316,20,48,37,583,-8197,-3393,-6502,0,0,0,0,1,0
171,106250,72,17,4728,-4014,-646,14,49,12,673,-8017.999999999999,-4724,-7130,0,0,0,0,1,0
172,106875,87,-10,5051,-3277,-1721,12,57.00000000000001,-2,968,-7273,-5803,-7155,0,0,0,0,1,0
173,107500,108,-32,5052,-2362,-2656,2,66,-15,950,-6327,-6775,-7181,0,0,0,0,1,0
174,108125,122.00000000000001,-50,4944,-1498,-3426,-1,69,-23,838,-5372,-7439,-7076,0,0,0,0,1,0
175,108750,122.00000000000001,-62,4693,-602,-4081,-1,66,-32,794,-4205,-7816,-6635,0,0,0,0,1,0
176,109375,99,-68,4247,334,-4591,-9,49,-34,671,-2832,-7958.999999999999,-5979,0,0,0,0,1,0
177,110000,77,-80,3598,1344,-4966,-10,45,-43,608,-1191,-7712,-4902,0,0,0,0,1,0
178,110625,76,-103,2680,2345,-5072,-16,47,-59.00000000000001,428,425,-7153,-3723,0,0,0,0,1,0
179,111250,76,-122,1789,3149,-5004,-21,42,-70,376,2049,-6229,-2248,0,0,0,0,1,0
180,111875,68,-128,908,3831,-4820,-26,37,-75,383,3586,-5112,-673,0,0,0,0,1,0
181,112500,46,-112.99999999999999,-12,4355,-4439,-30,23,-68,181,4900,-3936.0000000000005,679,0,0,0,0,1,0
182,113125,4,-76,-981,4767,-3887.9999999999995,-31,-2,-50,13,6017,-2659,1995.0000000000002,0,0,0,0,1,0
183,113750,-18,-74,-2069,5000,-3041,-32,-16,-53,-314,6900,-1173,3201,0,0,0,0,1,0
184,114375,-38,-74,-2957,4964,-2110,-31,-33,-50,-505,7535,401,4392,0,0,0,0,1,0
185,115000,-54,-71,-3690,4832,-1235,-25,-41,-47,-526,8000.999999999999,1917,5550,0,0,0,0,1,0
186,115625,-65,-53,-4268,4515,-327,-20,-47,-36,-578,8206,3396,6514,0,0,0,0,1,0
187,116250,-70,-13.999999999999998,-4720,4025,630,-14,-48,-8,-606,8079,4756,7227,0,0,0,0,1,0
188,116875,-84,10,-5050,3283,1710,-12,-57.00000000000001,5,-1022,7249,5755,7080,0,0,0,0,1,0
189,117500,-107,32,-5051,2375,2646,0,-66,17,-1034,6250,6690,7034,0,0,0,0,1,0
190,118125,-121,49,-4945,1514,3413,2,-69,26,-830,5383,7428,7083,0,0,0,0,1,0
191,118750,-123,61,-4694,608,4074.9999999999995,2,-64,33,-753,4253,7838.999999999999,6705,0,0,0,0,1,0
192,119375,-100,67,-4243,-331,4591,9,-49,36,-580,2932,8056,6150,0,0,0,0,1,0
193,120000,-76,79,-3602,-1339,4966,8,-45,45,-574,1244,7759,4982,0,0,0,0,1,0
194,120625,-77,103,-2680,-2343,5074,18,-45,60,-401,-387,7186,3778,0,0,0,0,1,0
195,121250,-77,122,-1792,-3144,5003,23,-40,71,-336,-2009.0000000000002,6272,2322,0,0,0,0,1,0
196,121875,-68,128,-922,-3821,4825,25,-35,76,-357,-3553,5145,728,0,0,0,0,1,0
197,122500,-46,114.99999999999999,-1,-4346,4444,33,-22,70,-172,-4865,3968,-635,0,0,0,0,1,0
198,123125,-1,77,966,-4756,3893.0000000000005,32,4,53,-18,-5989,2683,-1966.0000000000002,0,0,0,0,1,0
199,123750,18,75,2054,-4997,3048,33,18,54,327,-6881,1197,-3167,0,0,0,0,1,0
200,124375,39,77,2947,-4964,2121,31,34,52,533,-7497,-356,-4327,0,0,0,0,1,0
201,125000,55.00000000000001,72,3684,-4831,1241,24,42,49,553,-7965.999999999999,-1868,-5482,0,0,0,0,1,0
202,125625,65,55.00000000000001,4268,-4514,327,19,48,39,616,-8170.000000000001,-3343,-6438,0,0,0,0,1,0
203,126250,70,18,4722,-4027,-632,13,47,13,680,-8017.999999999999,-4699,-7112,0,0,0,0,1,0
204,126875,85,-10,5054,-3293,-1702,12,59,0,1130,-7158,-5650,-6902,0,0,0,1,1,0
205,127500,106,-31,5053,-2381,-2641,3,66,-15,1331,-5961,-6389,-6510,0,0,0,1,1,0
206,128125,120.00000000000001,-48,4942,-1524,-3409,-5,69,-23,950,-5255,-7297,-6856,0,0,0,0,1,0
207,128750,122.00000000000001,-61,4699,-621,-4065.0000000000005,0,65,-30,783,-4216,-7783,-6629,0,0,0,0,1,0
208,129375,99,-65,4252,314,-4585,-12,47,-33,496,-3040,-8132,-6310,0,0,0,0,1,0
209,130000,76,-78,3609,1324,-4957,-8,45,-42,486.00000000000006,-1372,-7854.999999999999,-5164,0,0,0,0,1,0
210,130625,75,-100,2693,2332,-5073,-18,47,-57.99999999999999,392,330,-7216,-3838,0,0,0,0,1,0
211,131250,76,-120,1801,3136,-5006,-24,42,-68,325,1970.9999999999998,-6298,-2364,0,0,0,0,1,0
212,131875,67,-127,928,3820,-4828,-26,37,-74,383,3585,-5120,-677,0,0,0,0,1,0
213,132500,48,-113.99999999999999,4,4346,-4447,-31,24,-69,194,4899,-3944.0000000000005,680,0,0,0,0,1,0
214,133125,4,-77,-964,4760,-3898,-31,-3,-50,34,6008,-2677,1989.0000000000002,0,0,0,0,1,0
215,133750,-18,-74,-2044,4999,-3061,-32,-16,-52,-289,6904,-1193,3206,0,0,0,0,1,0
216,134375,-37,-75,-2936,4966,-2132,-31,-32,-49,-513,7515,355,4347,0,0,0,0,1,0
217,135000,-53,-72,-3674,4835,-1251,-24,-41,-47,-526,7994,1885,5526,0,0,0,0,1,0
218,135625,-64,-53,-4257,4522,-343,-20,-46,-36,-595,8189,3350,6466,0,0,0,0,1,0
219,136250,-71,-16,-4715,4036,615,-13,-49,-8,-675,8017.999999999999,4678,7103,0,0,0,0,1,0
220,136875,-85,11,-5044,3299,1695,-7,-57.00000000000001,5,-876,7376,5856,7303,0,0,0,0,1,0
221,137500,-107,33,-5053,2390,2634,-1,-65,17,-843,6462,6860,7375,0,0,0,0,1,0
222,138125,-122.00000000000001,49,-4949,1528,3403,1,-68,27,-756,5490,7511,7236,0,0,0,0,1,0
