,, 1999
13, 12A, 1D
1, IA 1ВВ, A, , A, 0.009205, 0.000365, 0, -32768, 32767, 200, 1, S
2, IC 1ВВ, C, , A, 0.009193, -0.000354, 0, -32768, 32767, 200, 1, S
3, UA1СШ, A, , V, 0.016515, 0.002075, 0, -32768, 32767, 100, 1, S
4, UB1СШ, B, , V, 0.016695, 0.004507, 0, -32768, 32767, 100, 1, S
5, UC1СШ, C, , V, 0.016526, 0.002096, 0, -32768, 32767, 100, 1, S
6, UN1СШ, N, , V, 0.016514, 0.004505, 0, -32768, 32767, 100, 1, S
7, IA 2ВВ, A, , A, 0.009213, -0.000736, 0, -32768, 32767, 200, 1, S
8, IC 2ВВ, C, , A, 0.009184, -0.000697, 0, -32768, 32767, 200, 1, S
9, UA2СШ, A, , V, 0.01651, 0.005877, 0, -32768, 32767, 100, 1, S
10, UB2СШ, B, , V, 0.016515, 0.011068, 0, -32768, 32767, 100, 1, S
11, UC2СШ, C, , V, 0.016513, 0.006119, 0, -32768, 32767, 100, 1, S
12, UN2СШ, N, , V, 0.016571, 0.006788, 0, -32768, 32767, 100, 1, S
1, Пуск осциллографа, , , 0
50
1
1600, 10400
20/03/2023, 09:44:28.529000
20/03/2023, 09:44:29.529000
ASCII
1
1,0,93,-9,5057,-3338,-1662,11,76,4,5068,-3176,-1923,-18,0
2,625,120.00000000000001,-32,5091,-2389,-2650,14,90,-15,5088,-2240,-2875,-19,0
3,1250,138,-54,4969,-1507,-3422,16,101,-33,4955,-1385,-3593,-9,0
4,1875,139,-67,4707,-617,-4050.0000000000005,17,102,-46,4597,-444,-4173,-9,0
5,2500,111.99999999999999,-69,4268,329,-4568,16,84,-54,4117,517,-4656,-14,0
6,3125,83,-87,3655,1305,-4938,17,77,-68,3437,1561,-5014,-13,0
7,3750,88,-111.00000000000001,2740,2340,-5074,15,77,-87,2523,2575,-5119,-12,0
8,4375,84,-134,1818,3175,-5004,13,68,-97,1656,3361,-5036,-8,0
9,5000,78,-143,945,3830,-4795,9,59,-102,744,3982.9999999999995,-4748,-12,0
10,5625,57,-126,11,4365,-4410,5,41,-93,-207,4491,-4297,-5,0
11,6250,4,-82,-926,4776,-3894,5,14,-74,-1171,4893,-3728,-2,0
12,6875,-13.999999999999998,-87,-1995,5030,-3084,2,-3,-75,-2233,5104,-2868,5,0
13,7500,-42,-85,-2930,5011,-2135,-3,-24,-68,-3117,5079,-1950.9999999999998,10,0
14,8125,-60.00000000000001,-80,-3668,4849,-1237,-3,-39,-60,-3799,4877,-1062,13,0
15,8750,-70,-66,-4252,4511,-312,-4,-49,-47,-4343,4477,-108,18,0
16,9375,-74,-21,-4720,4045,619,-8,-60,-16,-4777,3971,834,18,0
17,10000,-95,11,-5054,3339,1661,-12,-74,-2,-5067,3173,1922,15.000000000000002,0
18,10625,-121,33,-5089,2395,2647,-13,-89,18,-5090,2242,2876,17,0
19,11250,-137,56.99999999999999,-4971,1511,3416,-15,-100,36,-4955,1386,3590,9,0
20,11875,-139,68,-4704,616,4047.9999999999995,-17,-100,47,-4599,443,4173,10,0
21,12500,-111.99999999999999,70,-4264,-339,4574,-16,-83,54,-4115,-529,4662,13,0
22,13125,-81,87,-3651,-1313,4945,-17,-77,70,-3433,-1566,5018,14,0
23,13750,-86,111.99999999999999,-2742,-2338,5076,-14,-75,88,-2523,-2577,5120,13,0
24,14375,-84,135,-1821,-3170,5003,-11,-66,99,-1656,-3363,5037,11,0
25,15000,-76,144,-945,-3830,4795,-8,-56,104,-747,-3982.9999999999995,4747,9,0
26,15625,-55.99999999999999,126,-11,-4364,4409,-6,-41,92,204,-4490,4298,5,0
27,16250,1,81,925,-4774,3892.0000000000005,-5,-12,76,1169,-4888,3724,0,0
28,16875,16,88,2001.0000000000002,-5028,3077,-2,4,78,2238,-5106,2864,-5,0
29,17500,42,87,2934,-5012,2132,0,24,70,3117,-5080,1950,-11,0
30,18125,61.00000000000001,82,3667,-4848,1237,3,41,63,3798,-4877,1060,-14,0
31,18750,71,67,4255,-4509,313,5,49,49,4342,-4475,105,-17,0
32,19375,74,25,4724,-4039.9999999999995,-628,8,61.99999999999999,17,4780,-3971,-839,-18,0
33,20000,94,-9,5058,-3337,-1664,12,75,3,5069,-3176,-1924,-19,0
34,20625,121,-32,5091,-2390,-2650,14,90,-16,5090,-2237,-2878,-12,0
35,21250,137,-55.00000000000001,4972,-1505,-3422,15,101,-34,4952,-1381,-3592,-10,0
36,21875,139,-68,4704,-612,-4050.0000000000005,17,102,-46,4596,-442,-4174,-12,0
37,22500,113,-68,4268,332,-4571,17,84,-54,4116,520,-4656,-12,0
38,23125,83,-86,3654,1305,-4937,17,79,-68,3431,1564,-5017,-11,0
39,23750,89,-111.99999999999999,2735,2344,-5076,13,76,-86,2519,2579,-5120,-11,0
40,24375,85,-135,1813,3177,-5002,12,67,-99,1654,3362,-5036,-15,0
41,25000,77,-144,945,3829,-4795,8,57.99999999999999,-103,745,3983.9999999999995,-4745,-8,0
42,25625,55.99999999999999,-125,13,4364,-4411,6,42,-91,-209,4490,-4297,-4,0
43,26250,4,-80,-927,4776,-3892.0000000000005,5,14,-74,-1169,4892,-3728,-1,0
44,26875,-15.000000000000002,-86,-1999,5031,-3081,2,-3,-76,-2234,5105,-2866,4,0
45,27500,-41,-85,-2934,5012,-2133,-1,-24,-69,-3121,5078,-1948.9999999999998,10,0
46,28125,-61.00000000000001,-80,-3670,4850,-1235,-1,-40,-61,-3800,4875,-1056,13,0
47,28750,-69,-65,-4254,4509,-311,-6,-49,-49,-4343,4476,-106,16,0
48,29375,-74,-21,-4720,4046,619,-8,-61.00000000000001,-16,-4776,3969.0000000000005,834,17,0
49,30000,-94,11,-5054,3337,1663,-11,-74,-2,-5068,3170,1924,19,0
50,30625,-120.00000000000001,34,-5089,2392,2648,-14,-90,17,-5088,2236,2878,12,0
51,31250,-137,57.99999999999999,-4969,1507,3418,-14,-101,37,-4953,1385,3590,12,0
52,31875,-139,70,-4703,613,4050.0000000000005,-15,-101,49,-4597,441,4175,10,0
53,32500,-111.99999999999999,70,-4263,-341,4573,-17,-85,54,-4116,-531,4662,8,0
54,33125,-82,87,-3650,-1313,4944,-16,-76,68,-3434,-1567,5017,10,0
55,33750,-89,113.99999999999999,-2739,-2339,5076,-14,-75,86,-2523,-2578,5121,13,0
56,34375,-83,135,-1817,-3174,5004,-12,-65,98,-1655,-3365,5038,10,0
57,35000,-77,143,-943,-3831,4794,-10,-57.00000000000001,105,-745,-3982,4744,11,0
58,35625,-55.99999999999999,126,-9,-4366,4409,-5,-41,93,205,-4490,4296,6,0
59,36250,0,81,927,-4775,3891.0000000000005,-5,-12,76,1171,-4890,3727,0,0
60,36875,15.000000000000002,88,1999.9999999999998,-5029,3079,-2,3,77,2240,-5106,2862,-6,0
61,37500,42,87,2934,-5010,2132,3,25,69,3117,-5078,1948,-11,0
62,38125,61.99999999999999,81,3667,-4850,1238,2,41,63,3798,-4878,1061,-14,0
63,38750,70,67,4256,-4509,311,5,51,51,4345,-4476,104,-18,0
64,39375,73,23,4728,-4039,-631,7,60,17,4781,-3970,-840,-18,0
65,40000,93,-10,5058,-3334,-1671,11,75,3,5071,-3174,-1925,-17,0
66,40625,120.00000000000001,-32,5091,-2389,-2651,14,90,-16,5087,-2237,-2879,-17,0
67,41250,136,-54,4971,-1507,-3421,15,99,-33,4952,-1381,-3596,-20,0
68,41875,139,-67,4703,-611,-4053,17,100,-45,4595,-441,-4177,-16,0
69,42500,110.00000000000001,-69,4265,336,-4571,19,85,-53,4116,522,-4657,-9,0
70,43125,83,-86,3649,1313,-4940,17,78,-67,3433,1567,-5017,-11,0
71,43750,88,-112.99999999999999,2734,2346,-5076,15,77,-85,2518,2579,-5120,-10,0
72,44375,83,-135,1817,3176,-5002,10,68,-98,1653,3363,-5035,-11,0
73,45000,78,-144,942,3829,-4794,11,57.99999999999999,-102,743,3983.9999999999995,-4746,-8,0
74,45625,55.99999999999999,-127,10,4365,-4410,6,41,-92,-211,4493,-4296,-5,0
75,46250,4,-80,-931,4779,-3890.0000000000005,4,14,-74,-1176,4895,-3724,1,0
76,46875,-15.000000000000002,-85,-2002,5032,-3078,2,-3,-75,-2238,5104,-2864,6,0
77,47500,-40,-85,-2938,5012,-2128,-2,-24,-67,-3121,5079,-1944.9999999999998,9,0
78,48125,-61.00000000000001,-80,-3671,4851,-1235,-3,-39,-61,-3801,4878,-1056,13,0
79,48750,-69,-65,-4254,4511,-314,-6,-50,-47,-4344,4474,-104,16,0
80,49375,-74,-20,-4718,4044,620,-8,-60,-16,-4776,3965.9999999999995,840,16,0
81,50000,-95,12,-5054,3334,1665,-11,-75,-2,-5069,3168,1928,17,0
82,50625,-120.00000000000001,33,-5092,2388,2655,-13,-90,19,-5088,2237,2880,15.000000000000002,0
83,51250,-137,55.99999999999999,-4971,1505,3420,-15,-100,35,-4953,1382,3594,13,0
84,51875,-139,71,-4702,611,4048.9999999999995,-18,-99,48,-4597,439,4177,13,0
85,52500,-111,70,-4265,-338,4574,-15,-84,53,-4114,-533,4665,9,0
86,53125,-82,87,-3648,-1316,4946,-16,-76,69,-3433,-1569,5017,8,0
87,53750,-87,111.99999999999999,-2736,-2344,5076,-14,-74,87,-2521,-2578,5119,13,0
88,54375,-82,135,-1814,-3174,5002,-10,-67,99,-1652,-3367,5037,12,0
89,55000,-76,142,-938,-3833,4794,-10,-57.99999999999999,104,-742,-3982.9999999999995,4745,9,0
90,55625,-55.00000000000001,125,-8,-4366,4409,-6,-40,94,208,-4490,4295,5,0
91,56250,-2,82,928,-4773,3887.9999999999995,-4,-13,76,1173,-4891,3725,1,0
92,56875,15.000000000000002,86,2003.9999999999998,-5030,3076,-2,4,77,2241,-5106,2862,-5,0
93,57500,42,86,2937,-5011,2129,3,25,70,3119,-5079,1946,-10,0
94,58125,61.00000000000001,82,3672,-4849,1233,2,41,61.99999999999999,3799,-4876,1055,-14,0
95,58750,70,67,4256,-4505,308,5,51,51,4344,-4476,104,-18,0
96,59375,73,24,4727,-4039,-632,8,61.00000000000001,18,4780,-3969.0000000000005,-841,-19,0
97,60000,94,-10,5061,-3333,-1671,12,74,4,5070,-3171,-1930,-18,0
98,60625,119,-31,5092,-2387,-2654,12,90,-16,5088,-2235,-2880,-14,0
99,61250,137,-55.99999999999999,4970,-1503,-3422,16,100,-34,4952,-1379,-3596,-10,0
100,61875,138,-67,4702,-612,-4052.0000000000005,17,100,-45,4597,-439,-4178,-13,0
101,62500,110.00000000000001,-68,4267,336,-4574,15,84,-53,4116,523,-4660,-14,0
102,63125,82,-83,3646,1317,-4942,18,78,-67,3428,1571,-5017,-8,0
103,63750,88,-111.00000000000001,2732,2346,-5076,14,76,-85,2518,2580,-5119,-11,0
104,64375,84,-133,1815,3176,-5004,13,67,-98,1652,3365,-5036,-10,0
105,65000,77,-142,942,3833,-4796,10,59,-102,739,3985.0000000000005,-4742,-8,0
106,65625,55.00000000000001,-123,6,4369,-4408,7,41,-90,-213,4493,-4296,-5,0
107,66250,3,-81,-936,4781,-3886.9999999999995,5,14,-74,-1177,4895,-3725,1,0
108,66875,-13.999999999999998,-86,-2010,5035,-3075,1,-3,-74,-2239,5105,-2864,5,0
109,67500,-41,-86,-2936,5012,-2129,-2,-23,-68,-3123,5078,-1944,9,0
110,68125,-59,-80,-3670,4848,-1233,-3,-40,-61,-3805,4874,-1052,13,0
111,68750,-69,-63,-4255,4509,-310,-5,-49,-47,-4346,4474,-102,17,0
112,69375,-74,-19,-4724,4043.0000000000005,626,-8,-59,-16,-4780,3968.0000000000005,840,16,0
113,70000,-92,9,-5056,3327,1675,-9,-74,-3,-5069,3167,1932,17,0
114,70625,-120.00000000000001,33,-5091,2385,2656,-13,-90,16,-5088,2235,2880,18,0
115,71250,-135,55.99999999999999,-4970,1506,3420,-16,-100,35,-4952,1380,3592,13,0
116,71875,-137,70,-4702,611,4052.0000000000005,-15,-99,48,-4596,438,4177,11,0
117,72500,-110.00000000000001,70,-4263,-340,4575,-17,-84,54,-4113,-534,4664,9,0
118,73125,-81,88,-3646,-1318,4944,-16,-78,68,-3431,-1573,5022,11,0
119,73750,-87,111.99999999999999,-2734,-2349,5081,-15,-75,86,-2518,-2582,5119,12,0
120,74375,-83,134,-1813,-3180,5001,-11,-66,99,-1651,-3368,5038,9,0
121,75000,-76,142,-939,-3833,4794,-9,-57.00000000000001,103,-739,-3985.0000000000005,4743,9,0
122,75625,-55.00000000000001,124,-8,-4367,4408,-7,-41,92,211,-4493,4295,5,0
123,76250,0,81,932,-4776,3887.9999999999995,-4,-14,75,1174,-4893,3723,0,0
124,76875,15.000000000000002,86,2011.9999999999998,-5031,3070,-3,4,76,2243,-5106,2858,-6,0
125,77500,41,86,2942,-5012,2124,2,24,69,3120,-5080,1946,-10,0
126,78125,60.00000000000001,80,3670,-4850,1233,4,40,63,3803,-4877,1056,-14,0
127,78750,68,66,4259,-4509,308,6,50,50,4347,-4474,100,-16,0
128,79375,71,23,4728,-4037,-633,7,60,18,4783,-3969.0000000000005,-843,-18,0
129,80000,91,-8,5060,-3330,-1678,11,74,4,5070,-3168,-1932,-18,0
130,80625,118,-31,5093,-2385,-2657,14,89,-15,5086,-2234,-2884,-18,0
131,81250,134,-55.00000000000001,4970,-1500,-3426,16,99,-32,4953,-1374,-3597,-9,0
132,81875,136,-67,4700,-605,-4054,17,99,-44,4595,-436,-4180,-13,0
133,82500,108,-68,4266,338,-4575,17,83,-53,4116,524,-4659,-7,0
134,83125,81,-85,3647,1317,-4944,18,77,-66,3429,1573,-5018,-12,0
135,83750,86,-111.00000000000001,2730,2349,-5075,13,76,-85,2516,2583,-5120,-14,0
136,84375,84,-132,1812,3178,-5002,11,68,-95,1650,3367,-5035,-9,0
137,85000,77,-141,941,3833,-4795,9,57.99999999999999,-101,738,3987,-4742,-9,0
138,85625,55.00000000000001,-123,3,4372,-4407,6,42,-90,-216,4495,-4293,-5,0
139,86250,2,-79,-941,4780,-3882,5,13,-73,-1180,4897,-3722,-1,0
140,86875,-13.999999999999998,-85,-2011,5032,-3072,1,-2,-74,-2242,5105,-2861,4,0
141,87500,-39,-87,-2941,5013,-2128,-2,-24,-67,-3124,5080,-1944,10,0
142,88125,-61.00000000000001,-78,-3669,4850,-1234,-3,-39,-60,-3806,4875,-1050,13,0
143,88750,-68,-64,-4257,4509,-307,-6,-49,-48,-4348,4473,-100,17,0
144,89375,-72,-18,-4723,4042.0000000000005,626,-8,-57.99999999999999,-17,-4779,3965,842,17,0
145,90000,-91,10,-5061,3326,1680,-10,-73,-2,-5071,3164,1933,14,0
146,90625,-118,32,-5092,2383,2659,-14,-89,17,-5088,2233,2882,18,0
147,91250,-135,55.00000000000001,-4970,1506,3419,-14,-100,34,-4951,1376,3595,10,0
148,91875,-136,68,-4703,609,4052.0000000000005,-15,-99,47,-4594,436,4179,15.000000000000002,0
149,92500,-107,69,-4261,-348,4578,-19,-84,54,-4112,-539,4665,7,0
150,93125,-81,84,-3639,-1331,4951,-17,-75,68,-3427,-1577,5021,12,0
151,93750,-86,111.00000000000001,-2728,-2352,5077,-15,-75,87,-2516,-2584,5119,11,0
152,94375,-82,132,-1815,-3177,5003,-10,-67,98,-1651,-3368,5037,9,0
153,95000,-74,141,-940,-3831,4793,-9,-56,103,-741,-3986.0000000000005,4744,8,0
154,95625,-55.00000000000001,124,-6,-4366,4406,-6,-39,93,212,-4492,4294,5,0
155,96250,-1,80,935,-4776,3884,-3,-13,76,1176,-4892,3721,-1,0
156,96875,16,86,2013.0000000000002,-5032,3069,-2,2,78,2244,-5107,2857,-6,0
157,97500,40,85,2947,-5010,2120,1,24,68,3124,-5079,1944,-10,0
158,98125,61.00000000000001,80,3673,-4847,1232,3,41,61.99999999999999,3802,-4875,1052,-15,0
159,98750,69,65,4259,-4508,306,5,50,50,4349,-4473,98,-17,0
160,99375,74,23,4729,-4038,-636,9,60,17,4785,-3966.9999999999995,-847,-18,0
161,100000,93,-11,5060,-3326,-1679,12,74,4,5072,-3169,-1932,-17,0
162,100625,120.00000000000001,-30,5092,-2381,-2661,12,90,-14,5087,-2233,-2881,-14,0
163,101250,136,-55.00000000000001,4971,-1500,-3427,16,102,-34,4951,-1376,-3597,-13,0
164,101875,137,-67,4703,-607,-4056,17,99,-45,4595,-435,-4181,-15,0
165,102500,109,-67,4265,339,-4574,19,84,-53,4115,527,-4661,-9,0
166,103125,82,-83,3644,1320,-4945,16,77,-68,3427,1576,-5020,-13,0
167,103750,88,-110.00000000000001,2727,2356,-5079,13,77,-86,2513,2585,-5119,-12,0
168,104375,83,-133,1807,3183,-5001,11,67,-97,1647,3370,-5037,-12,0
169,105000,77,-141,935,3837,-4793,11,57.99999999999999,-101,735,3988,-4743,-10,0
170,105625,55.00000000000001,-123,1,4372,-4407,5,41,-92,-218,4496,-4293,-6,0
171,106250,2,-79,-940,4782,-3885,3,13,-73,-1184,4897,-3721,0,0
172,106875,-13,-85,-2014,5031,-3068,1,-3,-74,-2244,5106,-2860,4,0
173,107500,-40,-84,-2938,5011,-2126,-1,-23,-66,-3124,5078,-1942.0000000000002,9,0
174,108125,-59,-79,-3674,4849,-1228,-3,-39,-60,-3805,4874,-1050,14,0
175,108750,-68,-64,-4259,4507,-302,-5,-49,-47,-4348,4471,-97,17,0
176,109375,-73,-17,-4724,4039,629,-7,-59,-16,-4782,3963,847,15.000000000000002,0
177,110000,-94,12,-5057,3327,1675,-11,-74,-2,-5070,3163,1935,17,0
178,110625,-119,33,-5090,2383,2659,-12,-90,17,-5088,2233,2884,19,0
179,111250,-136,55.99999999999999,-4968,1503,3422,-14,-99,35,-4954,1377,3596,12,0
180,111875,-139,69,-4699,608,4052.0000000000005,-16,-99,47,-4596,433,4181,9,0
181,112500,-110.00000000000001,70,-4261,-348,4579,-17,-84,53,-4112,-537,4666,10,0
182,113125,-81,85,-3645,-1325,4950,-17,-77,68,-3428,-1577,5022,9,0
183,113750,-87,111.00000000000001,-2726,-2355,5076,-15,-74,87,-2513,-2586,5120,15.000000000000002,0
184,114375,-82,133,-1809,-3181,5001,-12,-66,99,-1646,-3372,5036,9,0
185,115000,-76,142,-935,-3835,4792,-9,-57.00000000000001,103,-736,-3989,4742,8,0
186,115625,-55.00000000000001,123,1,-4372,4407,-5,-40,92,216,-4497,4294,4,0
187,116250,-2,80,942,-4781,3882,-4,-12,76,1183,-4896,3719,0,0
188,116875,13,87,2017.0000000000002,-5033,3067,-1,3,76,2248,-5107,2854,-5,0
189,117500,41,86,2943,-5011,2124,2,24,69,3124,-5078,1941,-10,0
190,118125,60.00000000000001,82,3674,-4847,1229,2,40,61.99999999999999,3804,-4875,1051,-15,0
191,118750,69,67,4258,-4505,303,5,49,48,4348,-4473,97,-17,0
192,119375,71,22,4731,-4037,-638,9,60,17,4783,-3965,-848,-18,0
193,120000,92,-9,5061,-3323,-1682,11,74,4,5072,-3167,-1938.0000000000002,-17,0
194,120625,118,-31,5092,-2378,-2664,12,88,-15,5089,-2231,-2886,-20,0
195,121250,134,-55.00000000000001,4971,-1496,-3429,17,99,-35,4950,-1370,-3601,-10,0
196,121875,137,-66,4702,-605,-4058,17,100,-45,4595,-432,-4184,-11,0
197,122500,110.00000000000001,-67,4263,343,-4575,15,83,-53,4113,529,-4661,-15,0
198,123125,81,-86,3643,1321,-4944,16,78,-67,3424,1578,-5022,-14,0
199,123750,87,-111.00000000000001,2725,2355,-5076,14,75,-84,2512,2587,-5120,-14,0
200,124375,83,-134,1805,3185,-5001,11,67,-98,1646,3368,-5034,-11,0
201,125000,76,-144,935,3835,-4791,9,59,-102,732,3990,-4742,-9,0
202,125625,55.99999999999999,-123,1,4371,-4407,6,42,-90,-221,4498,-4292,-5,0
203,126250,4,-79,-939,4782,-3885,4,13,-73,-1185,4898,-3718,2,0
204,126875,-15.000000000000002,-85,-2015.9999999999998,5036,-3067,1,-2,-74,-2247,5105,-2857,5,0
205,127500,-41,-85,-2946,5013,-2120,-2,-24,-67,-3130,5080,-1939,9,0
206,128125,-59,-80,-3678,4849,-1225,-3,-41,-60,-3809,4875,-1046,13,0
207,128750,-67,-65,-4259,4508,-303,-5,-48,-47,-4349,4470,-95,16,0
208,129375,-73,-20,-4725,4040.9999999999995,630,-8,-60,-15,-4780,3964,846,18,0
209,130000,-93,10,-5056,3322,1679,-11,-74,-2,-5071,3162,1936,15.000000000000002,0
210,130625,-120.00000000000001,31,-5090,2381,2660,-12,-90,17,-5086,2229,2887,19,0
211,131250,-136,55.99999999999999,-4969,1498,3426,-14,-100,35,-4949,1372,3599,13,0
212,131875,-138,70,-4699,601,4059,-15,-98,47,-4595,432,4182,12,0
213,132500,-109,69,-4259,-352,4579,-17,-84,54,-4110,-541,4667,12,0
214,133125,-81,87,-3641,-1328,4949,-18,-76,68,-3423,-1582,5021,9,0
215,133750,-86,112.99999999999999,-2726,-2353,5075,-15,-74,87,-2513,-2589,5118,9,0
216,134375,-82,133,-1806,-3179,5000,-10,-65,98,-1646,-3371,5036,12,0
217,135000,-75,143,-934,-3834.0000000000005,4789,-10,-56,102,-735,-3989,4739,9,0
218,135625,-55.00000000000001,125,1,-4371,4405,-6,-40,92,215,-4493,4289,5,0
219,136250,-1,80,939,-4780,3883,-3,-12,76,1179,-4894,3718,-2,0
220,136875,17,86,2011.9999999999998,-5030,3067,-1,3,78,2251,-5107,2853,-6,0
221,137500,41,87,2946,-5010,2119,2,23,70,3129,-5080,1938.0000000000002,-10,0
222,138125,60.00000000000001,81,3676,-4847,1226,3,40,63,3806,-4874,1047,-15,0
223,138750,69,66,4265,-4505,299,7,49,49,4350,-4473,94,-18,0
224,139375,73,23,4731,-4034,-641,8,60,17,4788,-3965.9999999999995,-852,-18,0
225,140000,93,-9,5062,-3325,-1684,11,74,5,5073,-3165,-1939,-18,0
226,140625,120.00000000000001,-31,5090,-2379,-2662,12,90,-15,5087,-2230,-2887,-15,0
227,141250,136,-55.00000000000001,4969,-1498,-3427,16,100,-35,4952,-1371,-3602,-15,0
228,141875,138,-67,4698,-602,-4056,18,100,-45,4592,-429,-4182,-12,0
229,142500,110.00000000000001,-69,4261,347,-4577,17,83,-53,4112,534,-4663,-8,0
230,143125,82,-86,3640,1328,-4946,16,77,-66,3420,1582,-5023,-11,0
231,143750,88,-111.99999999999999,2722,2358,-5075,15,76,-84,2509,2590,-5120,-14,0
232,144375,84,-134,1808,3184,-5001,12,67,-98,1642,3373,-5034,-11,0
233,145000,76,-142,932,3836,-4790,8,57.00000000000001,-101,728,3991.9999999999995,-4739,-8,0
234,145625,55.00000000000001,-125,0,4372,-4405,6,41,-89,-222,4498,-4289,-4,0
235,146250,2,-79,-942,4783,-3883,4,14,-72,-1188,4899,-3718,0,0
236,146875,-15.000000000000002,-87,-2015,5032,-3065,1,-1,-74,-2249,5106,-2854,4,0
237,147500,-40,-86,-2946,5011,-2118,-2,-23,-66,-3128,5076,-1939,9,0
238,148125,-60.00000000000001,-81,-3676,4846,-1224,-3,-39,-60,-3808,4873,-1045,14,0
239,148750,-69,-65,-4258,4506,-302,-4,-50,-47,-4350,4469,-92,17,0
240,149375,-74,-19,-4722,4039,628,-8,-59,-16,-4782,3958.9999999999995,851,16,0
241,150000,-95,12,-5057,3323,1679,-11,-75,-2,-5072,3159,1941,20,0
242,150625,-119,33,-5089,2375,2665,-12,-90,17,-5087,2227,2886,18,0
243,151250,-136,56.99999999999999,-4967,1497,3427,-15,-100,35,-4951,1372,3599,12,0
244,151875,-137,69,-4698,603,4055,-18,-98,48,-4592,429,4182,12,0
245,152500,-111,70,-4258,-349,4579,-16,-82,54,-4107,-542,4668,14,0
246,153125,-82,87,-3642,-1327,4949,-15,-76,68,-3424,-1582,5022,13,0
247,153750,-87,113.99999999999999,-2725,-2352,5074,-14,-74,86,-2509,-2590,5119,12,0
248,154375,-82,135,-1803,-3183,4999,-12,-66,99,-1643,-3374,5034,10,0
249,155000,-76,145,-928,-3839,4790,-11,-55,104,-733,-3990.9999999999995,4740,9,0
250,155625,-55.99999999999999,126,3,-4372,4406,-5,-39,92,220,-4497,4290,5,0
251,156250,1,81,934,-4778,3886,-4,-12,75,1185,-4896,3716,0,0
252,156875,18,87,2011,-5029,3067,-1,3,77,2251,-5107,2851,-5,0
253,157500,43,89,2944,-5008,2119,1,26,69,3126,-5078,1940.0000000000002,-12,0
254,158125,61.99999999999999,83,3679,-4845,1222,1,42,63,3805,-4874,1048,-14,0
255,158750,71,66,4263,-4503,297,5,51,49,4351,-4469,92,-17,0
256,159375,74,23,4731,-4030.9999999999995,-641,8,61.00000000000001,17,4785,-3962,-852,-18,0
257,160000,97,-10,5059,-3328,-1675,11,75,3,5072,-3162,-1938.0000000000002,-16,0
